
T1460 000:004 SEGGER J-Link V6.16c Log File (0000ms, 0004ms total)
T1460 000:004 DLL Compiled: Jun 16 2017 18:14:49 (0000ms, 0004ms total)
T1460 000:004 Logging started @ 2019-06-17 18:14 (0000ms, 0004ms total)
T1460 000:004 JLINK_SetWarnOutHandler(...) (0000ms, 0004ms total)
T1460 000:004 JLINK_OpenEx(...)
Firmware: J-Link ARM V8 compiled Nov 28 2014 13:44:46
Hardware: V8.00
S/N: 17935099
Feature(s): RDI,FlashDL,FlashBP,JFlashWEBSRV Webserver running on local port 19080 (0021ms, 0025ms total)
T1460 000:004   returns O.K. (0021ms, 0025ms total)
T1460 000:025 JLINK_GetEmuCaps()  returns 0xB9FF7BBF (0000ms, 0025ms total)
T1460 000:025 JLINK_TIF_GetAvailable(...) (0001ms, 0026ms total)
T1460 000:026 JLINK_SetErrorOutHandler(...) (0000ms, 0026ms total)
T1460 000:026 JLINK_ExecCommand("ProjectFile = "C:\Users\dell\Documents\Tencent Files\2856180900\FileRecv\5_5_DFU_Bootloader\USER\JLinkSettings.ini"", ...).   returns 0x00 (0074ms, 0100ms total)
T1460 000:102 JLINK_ExecCommand("Device = STM32F103C8", ...). Device "STM32F103C8" selected.  returns 0x00 (0004ms, 0104ms total)
T1460 000:106 JLINK_ExecCommand("DisableConnectionTimeout", ...).   returns 0x01 (0000ms, 0104ms total)
T1460 000:106 JLINK_GetHardwareVersion()  returns 0x13880 (0000ms, 0104ms total)
T1460 000:106 JLINK_GetDLLVersion()  returns 61603 (0000ms, 0104ms total)
T1460 000:106 JLINK_GetFirmwareString(...) (0000ms, 0104ms total)
T1460 000:111 JLINK_GetDLLVersion()  returns 61603 (0001ms, 0105ms total)
T1460 000:112 JLINK_GetCompileDateTime() (0000ms, 0105ms total)
T1460 000:113 JLINK_GetFirmwareString(...) (0000ms, 0105ms total)
T1460 000:116 JLINK_GetHardwareVersion()  returns 0x13880 (0000ms, 0105ms total)
T1460 000:127 JLINK_TIF_Select(JLINKARM_TIF_SWD)  returns 0x00 (0005ms, 0110ms total)
T1460 000:132 JLINK_SetSpeed(5000) (0000ms, 0110ms total)
T1460 000:133 JLINK_GetId() >0x10B TIF>Found SW-DP with ID 0x1BA01477 >0x0D TIF> >0x28 TIF> >0x0D TIF> >0x28 TIF> >0x0D TIF> >0x28 TIF> >0x0D TIF> >0x28 TIF> >0x0D TIF> >0x21 TIF> >0x0D TIF> >0x28 TIF> >0x0D TIF> >0x28 TIF> >0x0D TIF> >0x28 TIF> >0x0D TIF> >0x21 TIF> >0x0D TIF> >0x21 TIF> >0x0D TIF> >0x28 TIF> >0x0D TIF> >0x21 TIF> >0x0D TIF> >0x21 TIF> >0x0D TIF> >0x28 TIF> >0x0D TIF> >0x28 TIF> >0x0D TIF> >0x28 TIF> >0x0D TIF> >0x21 TIF> >0x0D TIF> >0x21 TIF> >0x0D TIF> >0x28 TIF> >0x0D TIF> >0x21 TIF>
 >0x0D TIF> >0x21 TIF> >0x0D TIF> >0x28 TIF> >0x0D TIF> >0x21 TIF> >0x0D TIF> >0x21 TIF> >0x0D TIF> >0x28 TIF> >0x0D TIF> >0x21 TIF> >0x0D TIF> >0x21 TIF> >0x0D TIF> >0x28 TIF> >0x0D TIF> >0x21 TIF> >0x0D TIF> >0x21 TIF> >0x10B TIF>Found SW-DP with ID 0x1BA01477 >0x0D TIF> >0x28 TIF> >0x0D TIF> >0x28 TIF> >0x0D TIF> >0x28 TIF> >0x0D TIF> >0x28 TIF> >0x0D TIF> >0x21 TIF> >0x0D TIF> >0x28 TIF>Scanning APs, stopping at first AHB-AP found. >0x0D TIF> >0x28 TIF> >0x0D TIF> >0x21 TIF> >0x0D TIF> >0x21 TIF>
AP[0] IDR: 0x14770011 (AHB-AP) >0x0D TIF> >0x28 TIF> >0x0D TIF> >0x21 TIF> >0x0D TIF> >0x21 TIF>AHB-AP ROM: 0xE00FF000 (Base addr. of first ROM table) >0x0D TIF> >0x28 TIF> >0x0D TIF> >0x28 TIF> >0x0D TIF> >0x28 TIF> >0x0D TIF> >0x21 TIF> >0x0D TIF> >0x21 TIF> >0x0D TIF> >0x28 TIF> >0x0D TIF> >0x21 TIF> >0x0D TIF> >0x21 TIF>CPUID reg: 0x411FC231. Implementer code: 0x41 (ARM)Found Cortex-M3 r1p1, Little endian. -- CPU_ReadMem(4 bytes @ 0xE000EDF0) -- CPU_WriteMem(4 bytes @ 0xE000EDF0)
 -- CPU_ReadMem(4 bytes @ 0xE0002000)FPUnit: 6 code (BP) slots and 2 literal slots -- CPU_ReadMem(4 bytes @ 0xE000EDFC) -- CPU_WriteMem(4 bytes @ 0xE000EDFC) -- CPU_ReadMem(4 bytes @ 0xE0001000) -- CPU_WriteMem(4 bytes @ 0xE0001000) -- CPU_ReadMem(4 bytes @ 0xE000ED88) -- CPU_WriteMem(4 bytes @ 0xE000ED88) -- CPU_ReadMem(4 bytes @ 0xE000ED88) -- CPU_WriteMem(4 bytes @ 0xE000ED88)CoreSight components:ROMTbl[0] @ E00FF000 -- CPU_ReadMem(16 bytes @ 0xE00FF000) -- CPU_ReadMem(16 bytes @ 0xE000EFF0)
 -- CPU_ReadMem(16 bytes @ 0xE000EFE0)ROMTbl[0][0]: E000E000, CID: B105E00D, PID: 001BB000 SCS -- CPU_ReadMem(16 bytes @ 0xE0001FF0) -- CPU_ReadMem(16 bytes @ 0xE0001FE0)ROMTbl[0][1]: E0001000, CID: B105E00D, PID: 001BB002 DWT -- CPU_ReadMem(16 bytes @ 0xE0002FF0) -- CPU_ReadMem(16 bytes @ 0xE0002FE0)ROMTbl[0][2]: E0002000, CID: B105E00D, PID: 000BB003 FPB -- CPU_ReadMem(16 bytes @ 0xE0000FF0) -- CPU_ReadMem(16 bytes @ 0xE0000FE0)ROMTbl[0][3]: E0000000, CID: B105E00D, PID: 001BB001 ITM
 -- CPU_ReadMem(16 bytes @ 0xE00FF010) -- CPU_ReadMem(16 bytes @ 0xE0040FF0) -- CPU_ReadMem(16 bytes @ 0xE0040FE0)ROMTbl[0][4]: E0040000, CID: B105900D, PID: 001BB923 TPIU-Lite >0x0D TIF> >0x21 TIF>  returns 0x1BA01477 (0166ms, 0277ms total)
T1460 000:299 JLINK_GetDLLVersion()  returns 61603 (0000ms, 0277ms total)
T1460 000:299 JLINK_CORE_GetFound()  returns 0x30000FF (0000ms, 0277ms total)
T1460 000:299 JLINK_GetDebugInfo(0x100 = JLINKARM_ROM_TABLE_ADDR_INDEX) -- Value=0xE00FF000  returns 0x00 (0000ms, 0277ms total)
T1460 000:301 JLINK_GetDebugInfo(0x100 = JLINKARM_ROM_TABLE_ADDR_INDEX) -- Value=0xE00FF000  returns 0x00 (0000ms, 0277ms total)
T1460 000:301 JLINK_GetDebugInfo(0x101 = JLINKARM_DEBUG_INFO_ETM_ADDR_INDEX) -- Value=0x00000000  returns 0x00 (0000ms, 0277ms total)
T1460 000:301 JLINK_ReadMemEx(0xE0041FF0, 0x0010 Bytes, ..., Flags = 0x02000004) -- CPU_ReadMem(16 bytes @ 0xE0041FF0) - Data: 00 00 00 00 00 00 00 00 00 00 00 00 00 00 00 00  returns 0x10 (0001ms, 0278ms total)
T1460 000:302 JLINK_GetDebugInfo(0x102 = JLINKARM_DEBUG_INFO_MTB_ADDR_INDEX) -- Value=0x00000000  returns 0x00 (0000ms, 0278ms total)
T1460 000:302 JLINK_GetDebugInfo(0x103 = JLINKARM_DEBUG_INFO_TPIU_ADDR_INDEX) -- Value=0xE0040000  returns 0x00 (0000ms, 0278ms total)
T1460 000:303 JLINK_GetDebugInfo(0x104 = JLINKARM_DEBUG_INFO_ITM_ADDR_INDEX) -- Value=0xE0000000  returns 0x00 (0000ms, 0278ms total)
T1460 000:303 JLINK_GetDebugInfo(0x105 = JLINKARM_DEBUG_INFO_DWT_ADDR_INDEX) -- Value=0xE0001000  returns 0x00 (0000ms, 0278ms total)
T1460 000:303 JLINK_GetDebugInfo(0x106 = JLINKARM_DEBUG_INFO_FPB_ADDR_INDEX) -- Value=0xE0002000  returns 0x00 (0000ms, 0278ms total)
T1460 000:303 JLINK_GetDebugInfo(0x107 = JLINKARM_DEBUG_INFO_NVIC_ADDR_INDEX) -- Value=0xE000E000  returns 0x00 (0000ms, 0278ms total)
T1460 000:303 JLINK_GetDebugInfo(0x10C = JLINKARM_DEBUG_INFO_DBG_ADDR_INDEX) -- Value=0xE000EDF0  returns 0x00 (0000ms, 0278ms total)
T1460 000:303 JLINK_ReadMemU32(0xE000ED00, 0x0001 Items, ...) -- CPU_ReadMem(4 bytes @ 0xE000ED00) - Data: 31 C2 1F 41  returns 0x01 (0000ms, 0278ms total)
T1460 000:303 JLINK_GetDebugInfo(0x10F = JLINKARM_DEBUG_INFO_HAS_CORTEX_M_SECURITY_EXT_INDEX) -- Value=0x00000000  returns 0x00 (0000ms, 0278ms total)
T1460 000:303 JLINK_SetResetType(JLINKARM_CM3_RESET_TYPE_NORMAL)  returns JLINKARM_CM3_RESET_TYPE_NORMAL (0000ms, 0278ms total)
T1460 000:304 JLINK_Reset() -- CPU is running -- CPU_WriteMem(4 bytes @ 0xE000EDF0) -- CPU is running -- CPU_WriteMem(4 bytes @ 0xE000EDFC) >0x35 TIF>Setting AIRCR.SYSRESETREQ -- CPU is running -- CPU_WriteMem(4 bytes @ 0xE000ED0C) >0x0D TIF> >0x28 TIF> -- CPU_ReadMem(4 bytes @ 0xE000ED0C) -- CPU_ReadMem(4 bytes @ 0xE000EDF0) -- CPU_ReadMem(4 bytes @ 0xE000EDF0) -- CPU_ReadMem(4 bytes @ 0xE000EDF0) -- CPU is running -- CPU_WriteMem(4 bytes @ 0xE000EDF0) -- CPU is running
 -- CPU_WriteMem(4 bytes @ 0xE000EDFC) -- CPU_ReadMem(4 bytes @ 0xE000EDF0) -- CPU_WriteMem(4 bytes @ 0xE0002000) -- CPU_ReadMem(4 bytes @ 0xE000EDFC) -- CPU_ReadMem(4 bytes @ 0xE0001000) (0076ms, 0355ms total)
T1460 000:381 JLINK_Halt()  returns 0x00 (0000ms, 0355ms total)
T1460 000:381 JLINK_ReadMemU32(0xE000EDF0, 0x0001 Items, ...) -- CPU_ReadMem(4 bytes @ 0xE000EDF0) - Data: 03 00 03 00  returns 0x01 (0000ms, 0355ms total)
T1460 000:381 JLINK_WriteU32(0xE000EDF0, 0xA05F0003) -- CPU_WriteMem(4 bytes @ 0xE000EDF0)  returns 0x00 (0001ms, 0356ms total)
T1460 000:382 JLINK_WriteU32(0xE000EDFC, 0x01000000) -- CPU_WriteMem(4 bytes @ 0xE000EDFC)  returns 0x00 (0001ms, 0357ms total)
T1460 000:391 JLINK_GetHWStatus(...)  returns 0x00 (0001ms, 0358ms total)
T1460 000:398 JLINK_GetNumBPUnits(Type = 0xFFFFFF00)  returns 0x06 (0000ms, 0358ms total)
T1460 000:398 JLINK_GetNumBPUnits(Type = 0xF0)  returns 0x2000 (0000ms, 0358ms total)
T1460 000:398 JLINK_GetNumWPUnits()  returns 0x04 (0000ms, 0358ms total)
T1460 000:403 JLINK_GetSpeed()  returns 0xFA0 (0000ms, 0358ms total)
T1460 000:409 JLINK_ReadMemU32(0xE000E004, 0x0001 Items, ...) -- CPU_ReadMem(4 bytes @ 0xE000E004) - Data: 01 00 00 00  returns 0x01 (0001ms, 0359ms total)
T1460 000:410 JLINK_ReadMemU32(0xE000E004, 0x0001 Items, ...) -- CPU_ReadMem(4 bytes @ 0xE000E004) - Data: 01 00 00 00  returns 0x01 (0001ms, 0360ms total)
T1460 000:411 JLINK_WriteMemEx(0xE0001000, 0x001C Bytes, ..., Flags = 0x02000004) - Data: 01 00 00 00 00 00 00 00 00 00 00 00 00 00 00 00 ... -- CPU_WriteMem(28 bytes @ 0xE0001000)  returns 0x1C (0002ms, 0362ms total)
T1460 000:413 JLINK_Halt()  returns 0x00 (0000ms, 0362ms total)
T1460 000:413 JLINK_IsHalted()  returns TRUE (0000ms, 0362ms total)
T1460 000:415 JLINK_WriteMem(0x20000000, 0x0164 Bytes, ...) - Data: 00 BE 0A E0 0D 78 2D 06 68 40 08 24 40 00 00 D3 ... -- CPU_WriteMem(356 bytes @ 0x20000000)  returns 0x164 (0003ms, 0365ms total)
T1460 000:418 JLINK_WriteReg(R0, 0x08000000)  returns 0x00 (0000ms, 0365ms total)
T1460 000:418 JLINK_WriteReg(R1, 0x007A1200)  returns 0x00 (0000ms, 0365ms total)
T1460 000:418 JLINK_WriteReg(R2, 0x00000001)  returns 0x00 (0000ms, 0365ms total)
T1460 000:418 JLINK_WriteReg(R3, 0x00000000)  returns 0x00 (0000ms, 0365ms total)
T1460 000:418 JLINK_WriteReg(R4, 0x00000000)  returns 0x00 (0000ms, 0365ms total)
T1460 000:418 JLINK_WriteReg(R5, 0x00000000)  returns 0x00 (0000ms, 0365ms total)
T1460 000:418 JLINK_WriteReg(R6, 0x00000000)  returns 0x00 (0000ms, 0365ms total)
T1460 000:418 JLINK_WriteReg(R7, 0x00000000)  returns 0x00 (0000ms, 0365ms total)
T1460 000:418 JLINK_WriteReg(R8, 0x00000000)  returns 0x00 (0000ms, 0365ms total)
T1460 000:418 JLINK_WriteReg(R9, 0x20000160)  returns 0x00 (0000ms, 0365ms total)
T1460 000:418 JLINK_WriteReg(R10, 0x00000000)  returns 0x00 (0000ms, 0365ms total)
T1460 000:418 JLINK_WriteReg(R11, 0x00000000)  returns 0x00 (0000ms, 0365ms total)
T1460 000:418 JLINK_WriteReg(R12, 0x00000000)  returns 0x00 (0000ms, 0365ms total)
T1460 000:418 JLINK_WriteReg(R13 (SP), 0x20000800)  returns 0x00 (0000ms, 0365ms total)
T1460 000:418 JLINK_WriteReg(R14, 0x20000001)  returns 0x00 (0000ms, 0365ms total)
T1460 000:418 JLINK_WriteReg(R15 (PC), 0x20000038)  returns 0x00 (0000ms, 0365ms total)
T1460 000:418 JLINK_WriteReg(XPSR, 0x01000000)  returns 0x00 (0000ms, 0365ms total)
T1460 000:418 JLINK_WriteReg(MSP, 0x20000800)  returns 0x00 (0000ms, 0365ms total)
T1460 000:418 JLINK_WriteReg(PSP, 0x20000800)  returns 0x00 (0000ms, 0365ms total)
T1460 000:418 JLINK_WriteReg(CFBP, 0x00000000)  returns 0x00 (0000ms, 0365ms total)
T1460 000:418 JLINK_SetBPEx(Addr = 0x20000000, Type = 0xFFFFFFF2) -- CPU_ReadMem(2 bytes @ 0x20000000)  returns 0x00000001 (0001ms, 0366ms total)
T1460 000:419 JLINK_Go() -- CPU_WriteMem(2 bytes @ 0x20000000) -- CPU_ReadMem(4 bytes @ 0xE0001000) -- CPU_WriteMem(4 bytes @ 0xE0002008) -- CPU_WriteMem(4 bytes @ 0xE000200C) -- CPU_WriteMem(4 bytes @ 0xE0002010) -- CPU_WriteMem(4 bytes @ 0xE0002014) -- CPU_WriteMem(4 bytes @ 0xE0002018) -- CPU_WriteMem(4 bytes @ 0xE000201C) -- CPU_WriteMem(4 bytes @ 0xE0001004) (0012ms, 0378ms total)
T1460 000:431 JLINK_IsHalted() -- CPU_ReadMem(2 bytes @ 0x20000000)  returns TRUE (0004ms, 0382ms total)
T1460 000:435 JLINK_ReadReg(R15 (PC))  returns 0x20000000 (0000ms, 0378ms total)
T1460 000:435 JLINK_ClrBPEx(BPHandle = 0x00000001)  returns 0x00 (0000ms, 0378ms total)
T1460 000:435 JLINK_ReadReg(R0)  returns 0x00000000 (0000ms, 0378ms total)
T1460 000:436 JLINK_WriteReg(R0, 0x08000000)  returns 0x00 (0000ms, 0379ms total)
T1460 000:436 JLINK_WriteReg(R1, 0x007A1200)  returns 0x00 (0000ms, 0379ms total)
T1460 000:436 JLINK_WriteReg(R2, 0x00000001)  returns 0x00 (0000ms, 0379ms total)
T1460 000:436 JLINK_WriteReg(R3, 0x00000000)  returns 0x00 (0000ms, 0379ms total)
T1460 000:436 JLINK_WriteReg(R4, 0x00000000)  returns 0x00 (0000ms, 0379ms total)
T1460 000:436 JLINK_WriteReg(R5, 0x00000000)  returns 0x00 (0000ms, 0379ms total)
T1460 000:436 JLINK_WriteReg(R6, 0x00000000)  returns 0x00 (0000ms, 0379ms total)
T1460 000:436 JLINK_WriteReg(R7, 0x00000000)  returns 0x00 (0000ms, 0379ms total)
T1460 000:436 JLINK_WriteReg(R8, 0x00000000)  returns 0x00 (0000ms, 0379ms total)
T1460 000:436 JLINK_WriteReg(R9, 0x20000160)  returns 0x00 (0000ms, 0379ms total)
T1460 000:436 JLINK_WriteReg(R10, 0x00000000)  returns 0x00 (0000ms, 0379ms total)
T1460 000:436 JLINK_WriteReg(R11, 0x00000000)  returns 0x00 (0000ms, 0379ms total)
T1460 000:436 JLINK_WriteReg(R12, 0x00000000)  returns 0x00 (0000ms, 0379ms total)
T1460 000:436 JLINK_WriteReg(R13 (SP), 0x20000800)  returns 0x00 (0000ms, 0379ms total)
T1460 000:436 JLINK_WriteReg(R14, 0x20000001)  returns 0x00 (0000ms, 0379ms total)
T1460 000:436 JLINK_WriteReg(R15 (PC), 0x2000007C)  returns 0x00 (0000ms, 0379ms total)
T1460 000:436 JLINK_WriteReg(XPSR, 0x01000000)  returns 0x00 (0000ms, 0379ms total)
T1460 000:436 JLINK_WriteReg(MSP, 0x20000800)  returns 0x00 (0000ms, 0379ms total)
T1460 000:436 JLINK_WriteReg(PSP, 0x20000800)  returns 0x00 (0000ms, 0379ms total)
T1460 000:436 JLINK_WriteReg(CFBP, 0x00000000)  returns 0x00 (0000ms, 0379ms total)
T1460 000:436 JLINK_SetBPEx(Addr = 0x20000000, Type = 0xFFFFFFF2)  returns 0x00000002 (0000ms, 0379ms total)
T1460 000:436 JLINK_Go() -- CPU_ReadMem(4 bytes @ 0xE0001000) (0004ms, 0383ms total)
T1460 000:440 JLINK_IsHalted()  returns FALSE (0000ms, 0383ms total)
T1460 000:449 JLINK_IsHalted()  returns FALSE (0001ms, 0384ms total)
T1460 000:451 JLINK_IsHalted()  returns FALSE (0001ms, 0384ms total)
T1460 000:453 JLINK_IsHalted()  returns FALSE (0001ms, 0384ms total)
T1460 000:455 JLINK_IsHalted()  returns FALSE (0001ms, 0384ms total)
T1460 000:457 JLINK_IsHalted()  returns FALSE (0001ms, 0384ms total)
T1460 000:459 JLINK_IsHalted()  returns FALSE (0001ms, 0384ms total)
T1460 000:461 JLINK_IsHalted()  returns FALSE (0000ms, 0383ms total)
T1460 000:462 JLINK_IsHalted() -- CPU_ReadMem(2 bytes @ 0x20000000)  returns TRUE (0004ms, 0387ms total)
T1460 000:466 JLINK_ReadReg(R15 (PC))  returns 0x20000000 (0000ms, 0383ms total)
T1460 000:466 JLINK_ClrBPEx(BPHandle = 0x00000002)  returns 0x00 (0000ms, 0383ms total)
T1460 000:466 JLINK_ReadReg(R0)  returns 0x00000000 (0000ms, 0383ms total)
T1460 000:516 JLINK_WriteReg(R0, 0x00000001)  returns 0x00 (0000ms, 0383ms total)
T1460 000:516 JLINK_WriteReg(R1, 0x007A1200)  returns 0x00 (0000ms, 0383ms total)
T1460 000:516 JLINK_WriteReg(R2, 0x00000001)  returns 0x00 (0000ms, 0383ms total)
T1460 000:516 JLINK_WriteReg(R3, 0x00000000)  returns 0x00 (0000ms, 0383ms total)
T1460 000:516 JLINK_WriteReg(R4, 0x00000000)  returns 0x00 (0000ms, 0383ms total)
T1460 000:516 JLINK_WriteReg(R5, 0x00000000)  returns 0x00 (0000ms, 0383ms total)
T1460 000:516 JLINK_WriteReg(R6, 0x00000000)  returns 0x00 (0000ms, 0383ms total)
T1460 000:516 JLINK_WriteReg(R7, 0x00000000)  returns 0x00 (0000ms, 0383ms total)
T1460 000:516 JLINK_WriteReg(R8, 0x00000000)  returns 0x00 (0000ms, 0383ms total)
T1460 000:516 JLINK_WriteReg(R9, 0x20000160)  returns 0x00 (0000ms, 0383ms total)
T1460 000:516 JLINK_WriteReg(R10, 0x00000000)  returns 0x00 (0000ms, 0383ms total)
T1460 000:516 JLINK_WriteReg(R11, 0x00000000)  returns 0x00 (0000ms, 0383ms total)
T1460 000:516 JLINK_WriteReg(R12, 0x00000000)  returns 0x00 (0000ms, 0383ms total)
T1460 000:516 JLINK_WriteReg(R13 (SP), 0x20000800)  returns 0x00 (0000ms, 0383ms total)
T1460 000:516 JLINK_WriteReg(R14, 0x20000001)  returns 0x00 (0000ms, 0383ms total)
T1460 000:516 JLINK_WriteReg(R15 (PC), 0x2000006A)  returns 0x00 (0001ms, 0384ms total)
T1460 000:517 JLINK_WriteReg(XPSR, 0x01000000)  returns 0x00 (0000ms, 0384ms total)
T1460 000:517 JLINK_WriteReg(MSP, 0x20000800)  returns 0x00 (0000ms, 0384ms total)
T1460 000:517 JLINK_WriteReg(PSP, 0x20000800)  returns 0x00 (0000ms, 0384ms total)
T1460 000:517 JLINK_WriteReg(CFBP, 0x00000000)  returns 0x00 (0000ms, 0384ms total)
T1460 000:517 JLINK_SetBPEx(Addr = 0x20000000, Type = 0xFFFFFFF2)  returns 0x00000003 (0000ms, 0384ms total)
T1460 000:517 JLINK_Go() -- CPU_ReadMem(4 bytes @ 0xE0001000) (0003ms, 0387ms total)
T1460 000:520 JLINK_IsHalted() -- CPU_ReadMem(2 bytes @ 0x20000000)  returns TRUE (0004ms, 0391ms total)
T1460 000:524 JLINK_ReadReg(R15 (PC))  returns 0x20000000 (0000ms, 0387ms total)
T1460 000:524 JLINK_ClrBPEx(BPHandle = 0x00000003)  returns 0x00 (0000ms, 0387ms total)
T1460 000:524 JLINK_ReadReg(R0)  returns 0x00000000 (0000ms, 0387ms total)
T1460 000:527 JLINK_WriteMem(0x20000000, 0x0164 Bytes, ...) - Data: 00 BE 0A E0 0D 78 2D 06 68 40 08 24 40 00 00 D3 ... -- CPU_WriteMem(356 bytes @ 0x20000000)  returns 0x164 (0003ms, 0390ms total)
T1460 000:530 JLINK_WriteReg(R0, 0x08000000)  returns 0x00 (0000ms, 0390ms total)
T1460 000:530 JLINK_WriteReg(R1, 0x007A1200)  returns 0x00 (0000ms, 0390ms total)
T1460 000:530 JLINK_WriteReg(R2, 0x00000002)  returns 0x00 (0000ms, 0390ms total)
T1460 000:530 JLINK_WriteReg(R3, 0x00000000)  returns 0x00 (0000ms, 0390ms total)
T1460 000:530 JLINK_WriteReg(R4, 0x00000000)  returns 0x00 (0000ms, 0390ms total)
T1460 000:530 JLINK_WriteReg(R5, 0x00000000)  returns 0x00 (0000ms, 0390ms total)
T1460 000:530 JLINK_WriteReg(R6, 0x00000000)  returns 0x00 (0000ms, 0390ms total)
T1460 000:530 JLINK_WriteReg(R7, 0x00000000)  returns 0x00 (0000ms, 0390ms total)
T1460 000:530 JLINK_WriteReg(R8, 0x00000000)  returns 0x00 (0000ms, 0390ms total)
T1460 000:530 JLINK_WriteReg(R9, 0x20000160)  returns 0x00 (0000ms, 0390ms total)
T1460 000:530 JLINK_WriteReg(R10, 0x00000000)  returns 0x00 (0000ms, 0390ms total)
T1460 000:530 JLINK_WriteReg(R11, 0x00000000)  returns 0x00 (0000ms, 0390ms total)
T1460 000:530 JLINK_WriteReg(R12, 0x00000000)  returns 0x00 (0000ms, 0390ms total)
T1460 000:530 JLINK_WriteReg(R13 (SP), 0x20000800)  returns 0x00 (0000ms, 0390ms total)
T1460 000:530 JLINK_WriteReg(R14, 0x20000001)  returns 0x00 (0000ms, 0390ms total)
T1460 000:530 JLINK_WriteReg(R15 (PC), 0x20000038)  returns 0x00 (0000ms, 0390ms total)
T1460 000:530 JLINK_WriteReg(XPSR, 0x01000000)  returns 0x00 (0000ms, 0390ms total)
T1460 000:530 JLINK_WriteReg(MSP, 0x20000800)  returns 0x00 (0000ms, 0390ms total)
T1460 000:530 JLINK_WriteReg(PSP, 0x20000800)  returns 0x00 (0001ms, 0391ms total)
T1460 000:531 JLINK_WriteReg(CFBP, 0x00000000)  returns 0x00 (0000ms, 0391ms total)
T1460 000:531 JLINK_SetBPEx(Addr = 0x20000000, Type = 0xFFFFFFF2) -- CPU_ReadMem(2 bytes @ 0x20000000)  returns 0x00000004 (0000ms, 0391ms total)
T1460 000:531 JLINK_Go() -- CPU_WriteMem(2 bytes @ 0x20000000) -- CPU_ReadMem(4 bytes @ 0xE0001000) (0004ms, 0395ms total)
T1460 000:535 JLINK_IsHalted() -- CPU_ReadMem(2 bytes @ 0x20000000)  returns TRUE (0004ms, 0399ms total)
T1460 000:539 JLINK_ReadReg(R15 (PC))  returns 0x20000000 (0000ms, 0395ms total)
T1460 000:539 JLINK_ClrBPEx(BPHandle = 0x00000004)  returns 0x00 (0000ms, 0395ms total)
T1460 000:539 JLINK_ReadReg(R0)  returns 0x00000000 (0000ms, 0395ms total)
T1460 000:540 JLINK_WriteMem(0x20000164, 0x029C Bytes, ...) - Data: E8 0E 00 20 39 02 00 08 B1 02 00 08 B3 02 00 08 ... -- CPU_WriteMem(668 bytes @ 0x20000164)  returns 0x29C (0004ms, 0399ms total)
T1460 000:544 JLINK_WriteMem(0x20000400, 0x0164 Bytes, ...) - Data: 00 F0 20 00 10 B1 01 20 03 F0 52 FF 01 20 00 F0 ... -- CPU_WriteMem(356 bytes @ 0x20000400)  returns 0x164 (0003ms, 0402ms total)
T1460 000:547 JLINK_WriteReg(R0, 0x08000000)  returns 0x00 (0000ms, 0402ms total)
T1460 000:547 JLINK_WriteReg(R1, 0x00000400)  returns 0x00 (0000ms, 0402ms total)
T1460 000:547 JLINK_WriteReg(R2, 0x20000164)  returns 0x00 (0000ms, 0402ms total)
T1460 000:547 JLINK_WriteReg(R3, 0x00000000)  returns 0x00 (0000ms, 0402ms total)
T1460 000:547 JLINK_WriteReg(R4, 0x00000000)  returns 0x00 (0000ms, 0402ms total)
T1460 000:547 JLINK_WriteReg(R5, 0x00000000)  returns 0x00 (0000ms, 0402ms total)
T1460 000:547 JLINK_WriteReg(R6, 0x00000000)  returns 0x00 (0000ms, 0402ms total)
T1460 000:547 JLINK_WriteReg(R7, 0x00000000)  returns 0x00 (0000ms, 0402ms total)
T1460 000:547 JLINK_WriteReg(R8, 0x00000000)  returns 0x00 (0000ms, 0402ms total)
T1460 000:547 JLINK_WriteReg(R9, 0x20000160)  returns 0x00 (0000ms, 0402ms total)
T1460 000:547 JLINK_WriteReg(R10, 0x00000000)  returns 0x00 (0000ms, 0402ms total)
T1460 000:547 JLINK_WriteReg(R11, 0x00000000)  returns 0x00 (0000ms, 0402ms total)
T1460 000:547 JLINK_WriteReg(R12, 0x00000000)  returns 0x00 (0000ms, 0402ms total)
T1460 000:547 JLINK_WriteReg(R13 (SP), 0x20000800)  returns 0x00 (0000ms, 0402ms total)
T1460 000:547 JLINK_WriteReg(R14, 0x20000001)  returns 0x00 (0000ms, 0402ms total)
T1460 000:547 JLINK_WriteReg(R15 (PC), 0x200000F4)  returns 0x00 (0000ms, 0402ms total)
T1460 000:547 JLINK_WriteReg(XPSR, 0x01000000)  returns 0x00 (0000ms, 0402ms total)
T1460 000:547 JLINK_WriteReg(MSP, 0x20000800)  returns 0x00 (0000ms, 0402ms total)
T1460 000:547 JLINK_WriteReg(PSP, 0x20000800)  returns 0x00 (0001ms, 0403ms total)
T1460 000:548 JLINK_WriteReg(CFBP, 0x00000000)  returns 0x00 (0000ms, 0403ms total)
T1460 000:548 JLINK_SetBPEx(Addr = 0x20000000, Type = 0xFFFFFFF2)  returns 0x00000005 (0000ms, 0403ms total)
T1460 000:548 JLINK_Go() -- CPU_ReadMem(4 bytes @ 0xE0001000) (0002ms, 0405ms total)
T1460 000:550 JLINK_IsHalted()  returns FALSE (0001ms, 0406ms total)
T1460 000:554 JLINK_IsHalted()  returns FALSE (0001ms, 0406ms total)
T1460 000:556 JLINK_IsHalted()  returns FALSE (0001ms, 0406ms total)
T1460 000:558 JLINK_IsHalted()  returns FALSE (0000ms, 0405ms total)
T1460 000:559 JLINK_IsHalted()  returns FALSE (0000ms, 0405ms total)
T1460 000:560 JLINK_IsHalted()  returns FALSE (0000ms, 0405ms total)
T1460 000:561 JLINK_IsHalted()  returns FALSE (0000ms, 0405ms total)
T1460 000:562 JLINK_IsHalted()  returns FALSE (0000ms, 0405ms total)
T1460 000:563 JLINK_IsHalted()  returns FALSE (0000ms, 0405ms total)
T1460 000:564 JLINK_IsHalted()  returns FALSE (0000ms, 0405ms total)
T1460 000:565 JLINK_IsHalted()  returns FALSE (0000ms, 0405ms total)
T1460 000:566 JLINK_IsHalted()  returns FALSE (0000ms, 0405ms total)
T1460 000:567 JLINK_IsHalted()  returns FALSE (0000ms, 0405ms total)
T1460 000:568 JLINK_IsHalted()  returns FALSE (0000ms, 0405ms total)
T1460 000:569 JLINK_IsHalted()  returns FALSE (0000ms, 0405ms total)
T1460 000:570 JLINK_IsHalted()  returns FALSE (0000ms, 0405ms total)
T1460 000:571 JLINK_IsHalted()  returns FALSE (0000ms, 0405ms total)
T1460 000:572 JLINK_IsHalted()  returns FALSE (0000ms, 0405ms total)
T1460 000:573 JLINK_IsHalted()  returns FALSE (0000ms, 0405ms total)
T1460 000:574 JLINK_IsHalted()  returns FALSE (0000ms, 0405ms total)
T1460 000:575 JLINK_IsHalted()  returns FALSE (0000ms, 0405ms total)
T1460 000:576 JLINK_IsHalted()  returns FALSE (0000ms, 0405ms total)
T1460 000:577 JLINK_IsHalted()  returns FALSE (0000ms, 0405ms total)
T1460 000:578 JLINK_IsHalted()  returns FALSE (0000ms, 0405ms total)
T1460 000:579 JLINK_IsHalted()  returns FALSE (0000ms, 0405ms total)
T1460 000:580 JLINK_IsHalted()  returns FALSE (0000ms, 0405ms total)
T1460 000:581 JLINK_IsHalted() -- CPU_ReadMem(2 bytes @ 0x20000000)  returns TRUE (0003ms, 0408ms total)
T1460 000:584 JLINK_ReadReg(R15 (PC))  returns 0x20000000 (0000ms, 0405ms total)
T1460 000:584 JLINK_ClrBPEx(BPHandle = 0x00000005)  returns 0x00 (0000ms, 0405ms total)
T1460 000:584 JLINK_ReadReg(R0)  returns 0x00000000 (0000ms, 0405ms total)
T1460 000:585 JLINK_WriteMem(0x20000164, 0x029C Bytes, ...) - Data: 45 48 00 68 00 F0 00 70 00 28 F9 D0 42 48 40 68 ... -- CPU_WriteMem(668 bytes @ 0x20000164)  returns 0x29C (0004ms, 0409ms total)
T1460 000:589 JLINK_WriteMem(0x20000400, 0x0164 Bytes, ...) - Data: 80 20 01 F0 61 F8 00 21 80 20 01 F0 5D F8 0A E0 ... -- CPU_WriteMem(356 bytes @ 0x20000400)  returns 0x164 (0003ms, 0412ms total)
T1460 000:592 JLINK_WriteReg(R0, 0x08000400)  returns 0x00 (0000ms, 0412ms total)
T1460 000:592 JLINK_WriteReg(R1, 0x00000400)  returns 0x00 (0000ms, 0412ms total)
T1460 000:592 JLINK_WriteReg(R2, 0x20000164)  returns 0x00 (0000ms, 0412ms total)
T1460 000:592 JLINK_WriteReg(R3, 0x00000000)  returns 0x00 (0000ms, 0412ms total)
T1460 000:592 JLINK_WriteReg(R4, 0x00000000)  returns 0x00 (0000ms, 0412ms total)
T1460 000:592 JLINK_WriteReg(R5, 0x00000000)  returns 0x00 (0000ms, 0412ms total)
T1460 000:592 JLINK_WriteReg(R6, 0x00000000)  returns 0x00 (0000ms, 0412ms total)
T1460 000:592 JLINK_WriteReg(R7, 0x00000000)  returns 0x00 (0000ms, 0412ms total)
T1460 000:592 JLINK_WriteReg(R8, 0x00000000)  returns 0x00 (0000ms, 0412ms total)
T1460 000:592 JLINK_WriteReg(R9, 0x20000160)  returns 0x00 (0000ms, 0412ms total)
T1460 000:592 JLINK_WriteReg(R10, 0x00000000)  returns 0x00 (0000ms, 0412ms total)
T1460 000:592 JLINK_WriteReg(R11, 0x00000000)  returns 0x00 (0000ms, 0412ms total)
T1460 000:592 JLINK_WriteReg(R12, 0x00000000)  returns 0x00 (0000ms, 0412ms total)
T1460 000:592 JLINK_WriteReg(R13 (SP), 0x20000800)  returns 0x00 (0000ms, 0412ms total)
T1460 000:592 JLINK_WriteReg(R14, 0x20000001)  returns 0x00 (0000ms, 0412ms total)
T1460 000:592 JLINK_WriteReg(R15 (PC), 0x200000F4)  returns 0x00 (0000ms, 0412ms total)
T1460 000:592 JLINK_WriteReg(XPSR, 0x01000000)  returns 0x00 (0000ms, 0412ms total)
T1460 000:592 JLINK_WriteReg(MSP, 0x20000800)  returns 0x00 (0000ms, 0412ms total)
T1460 000:592 JLINK_WriteReg(PSP, 0x20000800)  returns 0x00 (0000ms, 0412ms total)
T1460 000:592 JLINK_WriteReg(CFBP, 0x00000000)  returns 0x00 (0000ms, 0412ms total)
T1460 000:592 JLINK_SetBPEx(Addr = 0x20000000, Type = 0xFFFFFFF2)  returns 0x00000006 (0000ms, 0412ms total)
T1460 000:592 JLINK_Go() -- CPU_ReadMem(4 bytes @ 0xE0001000) (0003ms, 0415ms total)
T1460 000:595 JLINK_IsHalted()  returns FALSE (0001ms, 0416ms total)
T1460 000:597 JLINK_IsHalted()  returns FALSE (0001ms, 0416ms total)
T1460 000:599 JLINK_IsHalted()  returns FALSE (0001ms, 0416ms total)
T1460 000:601 JLINK_IsHalted()  returns FALSE (0001ms, 0416ms total)
T1460 000:603 JLINK_IsHalted()  returns FALSE (0001ms, 0416ms total)
T1460 000:605 JLINK_IsHalted()  returns FALSE (0001ms, 0416ms total)
T1460 000:607 JLINK_IsHalted()  returns FALSE (0001ms, 0416ms total)
T1460 000:609 JLINK_IsHalted()  returns FALSE (0001ms, 0416ms total)
T1460 000:611 JLINK_IsHalted()  returns FALSE (0000ms, 0416ms total)
T1460 000:612 JLINK_IsHalted()  returns FALSE (0001ms, 0417ms total)
T1460 000:614 JLINK_IsHalted()  returns FALSE (0001ms, 0417ms total)
T1460 000:616 JLINK_IsHalted()  returns FALSE (0001ms, 0417ms total)
T1460 000:618 JLINK_IsHalted()  returns FALSE (0001ms, 0417ms total)
T1460 000:620 JLINK_IsHalted()  returns FALSE (0001ms, 0417ms total)
T1460 000:622 JLINK_IsHalted()  returns FALSE (0001ms, 0417ms total)
T1460 000:624 JLINK_IsHalted()  returns FALSE (0001ms, 0417ms total)
T1460 000:626 JLINK_IsHalted() -- CPU_ReadMem(2 bytes @ 0x20000000)  returns TRUE (0003ms, 0419ms total)
T1460 000:629 JLINK_ReadReg(R15 (PC))  returns 0x20000000 (0000ms, 0416ms total)
T1460 000:629 JLINK_ClrBPEx(BPHandle = 0x00000006)  returns 0x00 (0000ms, 0416ms total)
T1460 000:629 JLINK_ReadReg(R0)  returns 0x00000000 (0000ms, 0416ms total)
T1460 000:630 JLINK_WriteMem(0x20000164, 0x029C Bytes, ...) - Data: 00 20 93 68 0B 40 0B B1 01 20 00 E0 00 20 70 47 ... -- CPU_WriteMem(668 bytes @ 0x20000164)  returns 0x29C (0004ms, 0420ms total)
T1460 000:634 JLINK_WriteMem(0x20000400, 0x0164 Bytes, ...) - Data: 00 40 40 B1 32 20 00 EB C9 00 B0 FB F1 F0 00 F0 ... -- CPU_WriteMem(356 bytes @ 0x20000400)  returns 0x164 (0003ms, 0423ms total)
T1460 000:637 JLINK_WriteReg(R0, 0x08000800)  returns 0x00 (0000ms, 0423ms total)
T1460 000:637 JLINK_WriteReg(R1, 0x00000400)  returns 0x00 (0000ms, 0423ms total)
T1460 000:637 JLINK_WriteReg(R2, 0x20000164)  returns 0x00 (0000ms, 0423ms total)
T1460 000:637 JLINK_WriteReg(R3, 0x00000000)  returns 0x00 (0000ms, 0423ms total)
T1460 000:637 JLINK_WriteReg(R4, 0x00000000)  returns 0x00 (0000ms, 0423ms total)
T1460 000:637 JLINK_WriteReg(R5, 0x00000000)  returns 0x00 (0000ms, 0423ms total)
T1460 000:637 JLINK_WriteReg(R6, 0x00000000)  returns 0x00 (0000ms, 0423ms total)
T1460 000:637 JLINK_WriteReg(R7, 0x00000000)  returns 0x00 (0000ms, 0423ms total)
T1460 000:637 JLINK_WriteReg(R8, 0x00000000)  returns 0x00 (0000ms, 0423ms total)
T1460 000:637 JLINK_WriteReg(R9, 0x20000160)  returns 0x00 (0000ms, 0423ms total)
T1460 000:637 JLINK_WriteReg(R10, 0x00000000)  returns 0x00 (0000ms, 0423ms total)
T1460 000:637 JLINK_WriteReg(R11, 0x00000000)  returns 0x00 (0000ms, 0423ms total)
T1460 000:637 JLINK_WriteReg(R12, 0x00000000)  returns 0x00 (0000ms, 0423ms total)
T1460 000:637 JLINK_WriteReg(R13 (SP), 0x20000800)  returns 0x00 (0000ms, 0423ms total)
T1460 000:637 JLINK_WriteReg(R14, 0x20000001)  returns 0x00 (0000ms, 0423ms total)
T1460 000:637 JLINK_WriteReg(R15 (PC), 0x200000F4)  returns 0x00 (0000ms, 0423ms total)
T1460 000:637 JLINK_WriteReg(XPSR, 0x01000000)  returns 0x00 (0000ms, 0423ms total)
T1460 000:637 JLINK_WriteReg(MSP, 0x20000800)  returns 0x00 (0000ms, 0423ms total)
T1460 000:637 JLINK_WriteReg(PSP, 0x20000800)  returns 0x00 (0000ms, 0423ms total)
T1460 000:637 JLINK_WriteReg(CFBP, 0x00000000)  returns 0x00 (0000ms, 0423ms total)
T1460 000:637 JLINK_SetBPEx(Addr = 0x20000000, Type = 0xFFFFFFF2)  returns 0x00000007 (0000ms, 0423ms total)
T1460 000:637 JLINK_Go() -- CPU_ReadMem(4 bytes @ 0xE0001000) (0004ms, 0427ms total)
T1460 000:641 JLINK_IsHalted()  returns FALSE (0001ms, 0428ms total)
T1460 000:644 JLINK_IsHalted()  returns FALSE (0001ms, 0428ms total)
T1460 000:646 JLINK_IsHalted()  returns FALSE (0001ms, 0428ms total)
T1460 000:648 JLINK_IsHalted()  returns FALSE (0001ms, 0428ms total)
T1460 000:650 JLINK_IsHalted()  returns FALSE (0000ms, 0427ms total)
T1460 000:651 JLINK_IsHalted()  returns FALSE (0000ms, 0427ms total)
T1460 000:652 JLINK_IsHalted()  returns FALSE (0000ms, 0427ms total)
T1460 000:653 JLINK_IsHalted()  returns FALSE (0000ms, 0427ms total)
T1460 000:654 JLINK_IsHalted()  returns FALSE (0001ms, 0428ms total)
T1460 000:656 JLINK_IsHalted()  returns FALSE (0001ms, 0428ms total)
T1460 000:658 JLINK_IsHalted()  returns FALSE (0000ms, 0427ms total)
T1460 000:659 JLINK_IsHalted()  returns FALSE (0001ms, 0428ms total)
T1460 000:661 JLINK_IsHalted()  returns FALSE (0000ms, 0428ms total)
T1460 000:662 JLINK_IsHalted()  returns FALSE (0000ms, 0428ms total)
T1460 000:664 JLINK_IsHalted()  returns FALSE (0001ms, 0429ms total)
T1460 000:666 JLINK_IsHalted()  returns FALSE (0001ms, 0429ms total)
T1460 000:668 JLINK_IsHalted()  returns FALSE (0001ms, 0429ms total)
T1460 000:670 JLINK_IsHalted()  returns FALSE (0000ms, 0428ms total)
T1460 000:671 JLINK_IsHalted()  returns FALSE (0001ms, 0429ms total)
T1460 000:673 JLINK_IsHalted() -- CPU_ReadMem(2 bytes @ 0x20000000)  returns TRUE (0004ms, 0432ms total)
T1460 000:677 JLINK_ReadReg(R15 (PC))  returns 0x20000000 (0000ms, 0428ms total)
T1460 000:677 JLINK_ClrBPEx(BPHandle = 0x00000007)  returns 0x00 (0000ms, 0428ms total)
T1460 000:677 JLINK_ReadReg(R0)  returns 0x00000000 (0000ms, 0428ms total)
T1460 000:677 JLINK_WriteMem(0x20000164, 0x029C Bytes, ...) - Data: 41 F0 01 01 81 81 70 47 02 8B D2 B2 02 83 02 8B ... -- CPU_WriteMem(668 bytes @ 0x20000164)  returns 0x29C (0005ms, 0433ms total)
T1460 000:682 JLINK_WriteMem(0x20000400, 0x0164 Bytes, ...) - Data: FE 4A 10 68 00 F0 38 00 08 43 10 60 70 47 FB 49 ... -- CPU_WriteMem(356 bytes @ 0x20000400)  returns 0x164 (0003ms, 0436ms total)
T1460 000:685 JLINK_WriteReg(R0, 0x08000C00)  returns 0x00 (0000ms, 0436ms total)
T1460 000:685 JLINK_WriteReg(R1, 0x00000400)  returns 0x00 (0000ms, 0436ms total)
T1460 000:685 JLINK_WriteReg(R2, 0x20000164)  returns 0x00 (0000ms, 0436ms total)
T1460 000:685 JLINK_WriteReg(R3, 0x00000000)  returns 0x00 (0000ms, 0436ms total)
T1460 000:685 JLINK_WriteReg(R4, 0x00000000)  returns 0x00 (0000ms, 0436ms total)
T1460 000:685 JLINK_WriteReg(R5, 0x00000000)  returns 0x00 (0000ms, 0436ms total)
T1460 000:685 JLINK_WriteReg(R6, 0x00000000)  returns 0x00 (0000ms, 0436ms total)
T1460 000:685 JLINK_WriteReg(R7, 0x00000000)  returns 0x00 (0000ms, 0436ms total)
T1460 000:685 JLINK_WriteReg(R8, 0x00000000)  returns 0x00 (0000ms, 0436ms total)
T1460 000:685 JLINK_WriteReg(R9, 0x20000160)  returns 0x00 (0000ms, 0436ms total)
T1460 000:685 JLINK_WriteReg(R10, 0x00000000)  returns 0x00 (0000ms, 0436ms total)
T1460 000:685 JLINK_WriteReg(R11, 0x00000000)  returns 0x00 (0000ms, 0436ms total)
T1460 000:685 JLINK_WriteReg(R12, 0x00000000)  returns 0x00 (0000ms, 0436ms total)
T1460 000:685 JLINK_WriteReg(R13 (SP), 0x20000800)  returns 0x00 (0000ms, 0436ms total)
T1460 000:685 JLINK_WriteReg(R14, 0x20000001)  returns 0x00 (0000ms, 0436ms total)
T1460 000:685 JLINK_WriteReg(R15 (PC), 0x200000F4)  returns 0x00 (0000ms, 0436ms total)
T1460 000:685 JLINK_WriteReg(XPSR, 0x01000000)  returns 0x00 (0000ms, 0436ms total)
T1460 000:685 JLINK_WriteReg(MSP, 0x20000800)  returns 0x00 (0000ms, 0436ms total)
T1460 000:685 JLINK_WriteReg(PSP, 0x20000800)  returns 0x00 (0000ms, 0436ms total)
T1460 000:685 JLINK_WriteReg(CFBP, 0x00000000)  returns 0x00 (0000ms, 0436ms total)
T1460 000:685 JLINK_SetBPEx(Addr = 0x20000000, Type = 0xFFFFFFF2)  returns 0x00000008 (0000ms, 0436ms total)
T1460 000:685 JLINK_Go() -- CPU_ReadMem(4 bytes @ 0xE0001000) (0003ms, 0439ms total)
T1460 000:688 JLINK_IsHalted()  returns FALSE (0001ms, 0440ms total)
T1460 000:690 JLINK_IsHalted()  returns FALSE (0001ms, 0440ms total)
T1460 000:692 JLINK_IsHalted()  returns FALSE (0000ms, 0439ms total)
T1460 000:693 JLINK_IsHalted()  returns FALSE (0001ms, 0440ms total)
T1460 000:696 JLINK_IsHalted()  returns FALSE (0001ms, 0440ms total)
T1460 000:698 JLINK_IsHalted()  returns FALSE (0000ms, 0439ms total)
T1460 000:699 JLINK_IsHalted()  returns FALSE (0001ms, 0440ms total)
T1460 000:701 JLINK_IsHalted()  returns FALSE (0001ms, 0440ms total)
T1460 000:703 JLINK_IsHalted()  returns FALSE (0001ms, 0440ms total)
T1460 000:705 JLINK_IsHalted()  returns FALSE (0001ms, 0440ms total)
T1460 000:707 JLINK_IsHalted()  returns FALSE (0001ms, 0440ms total)
T1460 000:709 JLINK_IsHalted()  returns FALSE (0001ms, 0440ms total)
T1460 000:711 JLINK_IsHalted()  returns FALSE (0001ms, 0440ms total)
T1460 000:713 JLINK_IsHalted()  returns FALSE (0001ms, 0440ms total)
T1460 000:715 JLINK_IsHalted()  returns FALSE (0001ms, 0440ms total)
T1460 000:717 JLINK_IsHalted()  returns FALSE (0001ms, 0440ms total)
T1460 000:719 JLINK_IsHalted() -- CPU_ReadMem(2 bytes @ 0x20000000)  returns TRUE (0003ms, 0442ms total)
T1460 000:722 JLINK_ReadReg(R15 (PC))  returns 0x20000000 (0000ms, 0439ms total)
T1460 000:722 JLINK_ClrBPEx(BPHandle = 0x00000008)  returns 0x00 (0000ms, 0439ms total)
T1460 000:722 JLINK_ReadReg(R0)  returns 0x00000000 (0000ms, 0439ms total)
T1460 000:722 JLINK_WriteMem(0x20000164, 0x029C Bytes, ...) - Data: 52 1E 01 2B 01 D1 00 2A F7 D1 02 B9 05 23 18 46 ... -- CPU_WriteMem(668 bytes @ 0x20000164)  returns 0x29C (0005ms, 0444ms total)
T1460 000:727 JLINK_WriteMem(0x20000400, 0x0164 Bytes, ...) - Data: 23 01 67 45 AB 89 EF CD 00 F8 FF 1F 66 49 08 61 ... -- CPU_WriteMem(356 bytes @ 0x20000400)  returns 0x164 (0002ms, 0446ms total)
T1460 000:729 JLINK_WriteReg(R0, 0x08001000)  returns 0x00 (0000ms, 0446ms total)
T1460 000:729 JLINK_WriteReg(R1, 0x00000400)  returns 0x00 (0000ms, 0446ms total)
T1460 000:729 JLINK_WriteReg(R2, 0x20000164)  returns 0x00 (0000ms, 0446ms total)
T1460 000:729 JLINK_WriteReg(R3, 0x00000000)  returns 0x00 (0000ms, 0446ms total)
T1460 000:729 JLINK_WriteReg(R4, 0x00000000)  returns 0x00 (0000ms, 0446ms total)
T1460 000:729 JLINK_WriteReg(R5, 0x00000000)  returns 0x00 (0000ms, 0446ms total)
T1460 000:729 JLINK_WriteReg(R6, 0x00000000)  returns 0x00 (0000ms, 0446ms total)
T1460 000:729 JLINK_WriteReg(R7, 0x00000000)  returns 0x00 (0001ms, 0447ms total)
T1460 000:730 JLINK_WriteReg(R8, 0x00000000)  returns 0x00 (0000ms, 0447ms total)
T1460 000:730 JLINK_WriteReg(R9, 0x20000160)  returns 0x00 (0000ms, 0447ms total)
T1460 000:730 JLINK_WriteReg(R10, 0x00000000)  returns 0x00 (0000ms, 0447ms total)
T1460 000:730 JLINK_WriteReg(R11, 0x00000000)  returns 0x00 (0000ms, 0447ms total)
T1460 000:730 JLINK_WriteReg(R12, 0x00000000)  returns 0x00 (0000ms, 0447ms total)
T1460 000:730 JLINK_WriteReg(R13 (SP), 0x20000800)  returns 0x00 (0000ms, 0447ms total)
T1460 000:730 JLINK_WriteReg(R14, 0x20000001)  returns 0x00 (0000ms, 0447ms total)
T1460 000:730 JLINK_WriteReg(R15 (PC), 0x200000F4)  returns 0x00 (0000ms, 0447ms total)
T1460 000:730 JLINK_WriteReg(XPSR, 0x01000000)  returns 0x00 (0000ms, 0447ms total)
T1460 000:730 JLINK_WriteReg(MSP, 0x20000800)  returns 0x00 (0000ms, 0447ms total)
T1460 000:730 JLINK_WriteReg(PSP, 0x20000800)  returns 0x00 (0000ms, 0447ms total)
T1460 000:730 JLINK_WriteReg(CFBP, 0x00000000)  returns 0x00 (0000ms, 0447ms total)
T1460 000:730 JLINK_SetBPEx(Addr = 0x20000000, Type = 0xFFFFFFF2)  returns 0x00000009 (0000ms, 0447ms total)
T1460 000:730 JLINK_Go() -- CPU_ReadMem(4 bytes @ 0xE0001000) (0002ms, 0449ms total)
T1460 000:732 JLINK_IsHalted()  returns FALSE (0001ms, 0450ms total)
T1460 000:734 JLINK_IsHalted()  returns FALSE (0000ms, 0449ms total)
T1460 000:735 JLINK_IsHalted()  returns FALSE (0000ms, 0449ms total)
T1460 000:736 JLINK_IsHalted()  returns FALSE (0000ms, 0449ms total)
T1460 000:737 JLINK_IsHalted()  returns FALSE (0000ms, 0449ms total)
T1460 000:738 JLINK_IsHalted()  returns FALSE (0000ms, 0449ms total)
T1460 000:739 JLINK_IsHalted()  returns FALSE (0000ms, 0449ms total)
T1460 000:740 JLINK_IsHalted()  returns FALSE (0000ms, 0449ms total)
T1460 000:742 JLINK_IsHalted()  returns FALSE (0001ms, 0450ms total)
T1460 000:744 JLINK_IsHalted()  returns FALSE (0001ms, 0450ms total)
T1460 000:746 JLINK_IsHalted()  returns FALSE (0001ms, 0450ms total)
T1460 000:748 JLINK_IsHalted()  returns FALSE (0001ms, 0450ms total)
T1460 000:750 JLINK_IsHalted()  returns FALSE (0001ms, 0450ms total)
T1460 000:752 JLINK_IsHalted()  returns FALSE (0001ms, 0450ms total)
T1460 000:754 JLINK_IsHalted()  returns FALSE (0001ms, 0450ms total)
T1460 000:756 JLINK_IsHalted()  returns FALSE (0001ms, 0450ms total)
T1460 000:758 JLINK_IsHalted()  returns FALSE (0000ms, 0449ms total)
T1460 000:759 JLINK_IsHalted()  returns FALSE (0000ms, 0449ms total)
T1460 000:760 JLINK_IsHalted()  returns FALSE (0001ms, 0450ms total)
T1460 000:762 JLINK_IsHalted()  returns FALSE (0000ms, 0450ms total)
T1460 000:763 JLINK_IsHalted() -- CPU_ReadMem(2 bytes @ 0x20000000)  returns TRUE (0004ms, 0454ms total)
T1460 000:767 JLINK_ReadReg(R15 (PC))  returns 0x20000000 (0000ms, 0450ms total)
T1460 000:767 JLINK_ClrBPEx(BPHandle = 0x00000009)  returns 0x00 (0000ms, 0450ms total)
T1460 000:767 JLINK_ReadReg(R0)  returns 0x00000000 (0000ms, 0450ms total)
T1460 000:768 JLINK_WriteMem(0x20000164, 0x029C Bytes, ...) - Data: 0A 40 0A B1 01 20 00 E0 00 20 70 47 0D 49 C8 60 ... -- CPU_WriteMem(668 bytes @ 0x20000164)  returns 0x29C (0004ms, 0454ms total)
T1460 000:772 JLINK_WriteMem(0x20000400, 0x0164 Bytes, ...) - Data: 05 60 0B E0 4C 4D 6D 68 05 F4 00 35 1D B1 50 4D ... -- CPU_WriteMem(356 bytes @ 0x20000400)  returns 0x164 (0003ms, 0457ms total)
T1460 000:775 JLINK_WriteReg(R0, 0x08001400)  returns 0x00 (0000ms, 0457ms total)
T1460 000:775 JLINK_WriteReg(R1, 0x00000400)  returns 0x00 (0000ms, 0457ms total)
T1460 000:775 JLINK_WriteReg(R2, 0x20000164)  returns 0x00 (0000ms, 0457ms total)
T1460 000:775 JLINK_WriteReg(R3, 0x00000000)  returns 0x00 (0000ms, 0457ms total)
T1460 000:775 JLINK_WriteReg(R4, 0x00000000)  returns 0x00 (0000ms, 0457ms total)
T1460 000:775 JLINK_WriteReg(R5, 0x00000000)  returns 0x00 (0000ms, 0457ms total)
T1460 000:775 JLINK_WriteReg(R6, 0x00000000)  returns 0x00 (0000ms, 0457ms total)
T1460 000:775 JLINK_WriteReg(R7, 0x00000000)  returns 0x00 (0000ms, 0457ms total)
T1460 000:775 JLINK_WriteReg(R8, 0x00000000)  returns 0x00 (0000ms, 0457ms total)
T1460 000:775 JLINK_WriteReg(R9, 0x20000160)  returns 0x00 (0000ms, 0457ms total)
T1460 000:775 JLINK_WriteReg(R10, 0x00000000)  returns 0x00 (0000ms, 0457ms total)
T1460 000:775 JLINK_WriteReg(R11, 0x00000000)  returns 0x00 (0000ms, 0457ms total)
T1460 000:775 JLINK_WriteReg(R12, 0x00000000)  returns 0x00 (0000ms, 0457ms total)
T1460 000:775 JLINK_WriteReg(R13 (SP), 0x20000800)  returns 0x00 (0000ms, 0457ms total)
T1460 000:775 JLINK_WriteReg(R14, 0x20000001)  returns 0x00 (0000ms, 0457ms total)
T1460 000:775 JLINK_WriteReg(R15 (PC), 0x200000F4)  returns 0x00 (0000ms, 0457ms total)
T1460 000:775 JLINK_WriteReg(XPSR, 0x01000000)  returns 0x00 (0000ms, 0457ms total)
T1460 000:775 JLINK_WriteReg(MSP, 0x20000800)  returns 0x00 (0000ms, 0457ms total)
T1460 000:775 JLINK_WriteReg(PSP, 0x20000800)  returns 0x00 (0000ms, 0457ms total)
T1460 000:775 JLINK_WriteReg(CFBP, 0x00000000)  returns 0x00 (0000ms, 0457ms total)
T1460 000:775 JLINK_SetBPEx(Addr = 0x20000000, Type = 0xFFFFFFF2)  returns 0x0000000A (0000ms, 0457ms total)
T1460 000:775 JLINK_Go() -- CPU_ReadMem(4 bytes @ 0xE0001000) (0003ms, 0460ms total)
T1460 000:778 JLINK_IsHalted()  returns FALSE (0001ms, 0461ms total)
T1460 000:780 JLINK_IsHalted()  returns FALSE (0001ms, 0461ms total)
T1460 000:782 JLINK_IsHalted()  returns FALSE (0001ms, 0461ms total)
T1460 000:784 JLINK_IsHalted()  returns FALSE (0001ms, 0461ms total)
T1460 000:786 JLINK_IsHalted()  returns FALSE (0001ms, 0461ms total)
T1460 000:788 JLINK_IsHalted()  returns FALSE (0000ms, 0460ms total)
T1460 000:789 JLINK_IsHalted()  returns FALSE (0000ms, 0460ms total)
T1460 000:790 JLINK_IsHalted()  returns FALSE (0001ms, 0461ms total)
T1460 000:792 JLINK_IsHalted()  returns FALSE (0001ms, 0461ms total)
T1460 000:794 JLINK_IsHalted()  returns FALSE (0001ms, 0461ms total)
T1460 000:796 JLINK_IsHalted()  returns FALSE (0001ms, 0461ms total)
T1460 000:798 JLINK_IsHalted()  returns FALSE (0001ms, 0461ms total)
T1460 000:800 JLINK_IsHalted()  returns FALSE (0001ms, 0461ms total)
T1460 000:802 JLINK_IsHalted()  returns FALSE (0001ms, 0461ms total)
T1460 000:805 JLINK_IsHalted()  returns FALSE (0001ms, 0461ms total)
T1460 000:807 JLINK_IsHalted()  returns FALSE (0001ms, 0461ms total)
T1460 000:809 JLINK_IsHalted() -- CPU_ReadMem(2 bytes @ 0x20000000)  returns TRUE (0003ms, 0463ms total)
T1460 000:812 JLINK_ReadReg(R15 (PC))  returns 0x20000000 (0000ms, 0460ms total)
T1460 000:812 JLINK_ClrBPEx(BPHandle = 0x0000000A)  returns 0x00 (0000ms, 0460ms total)
T1460 000:812 JLINK_ReadReg(R0)  returns 0x00000000 (0000ms, 0460ms total)
T1460 000:812 JLINK_WriteMem(0x20000164, 0x029C Bytes, ...) - Data: 7A 72 51 43 16 4A 11 60 16 49 09 68 41 F0 80 71 ... -- CPU_WriteMem(668 bytes @ 0x20000164)  returns 0x29C (0005ms, 0465ms total)
T1460 000:817 JLINK_WriteMem(0x20000400, 0x0164 Bytes, ...) - Data: 80 30 48 60 45 48 00 68 40 F0 32 00 43 49 08 60 ... -- CPU_WriteMem(356 bytes @ 0x20000400)  returns 0x164 (0003ms, 0468ms total)
T1460 000:820 JLINK_WriteReg(R0, 0x08001800)  returns 0x00 (0000ms, 0468ms total)
T1460 000:820 JLINK_WriteReg(R1, 0x00000400)  returns 0x00 (0000ms, 0468ms total)
T1460 000:820 JLINK_WriteReg(R2, 0x20000164)  returns 0x00 (0000ms, 0468ms total)
T1460 000:820 JLINK_WriteReg(R3, 0x00000000)  returns 0x00 (0000ms, 0468ms total)
T1460 000:820 JLINK_WriteReg(R4, 0x00000000)  returns 0x00 (0000ms, 0468ms total)
T1460 000:820 JLINK_WriteReg(R5, 0x00000000)  returns 0x00 (0000ms, 0468ms total)
T1460 000:820 JLINK_WriteReg(R6, 0x00000000)  returns 0x00 (0000ms, 0468ms total)
T1460 000:820 JLINK_WriteReg(R7, 0x00000000)  returns 0x00 (0000ms, 0468ms total)
T1460 000:820 JLINK_WriteReg(R8, 0x00000000)  returns 0x00 (0000ms, 0468ms total)
T1460 000:820 JLINK_WriteReg(R9, 0x20000160)  returns 0x00 (0000ms, 0468ms total)
T1460 000:820 JLINK_WriteReg(R10, 0x00000000)  returns 0x00 (0000ms, 0468ms total)
T1460 000:820 JLINK_WriteReg(R11, 0x00000000)  returns 0x00 (0000ms, 0468ms total)
T1460 000:820 JLINK_WriteReg(R12, 0x00000000)  returns 0x00 (0000ms, 0468ms total)
T1460 000:820 JLINK_WriteReg(R13 (SP), 0x20000800)  returns 0x00 (0000ms, 0468ms total)
T1460 000:820 JLINK_WriteReg(R14, 0x20000001)  returns 0x00 (0000ms, 0468ms total)
T1460 000:820 JLINK_WriteReg(R15 (PC), 0x200000F4)  returns 0x00 (0000ms, 0468ms total)
T1460 000:820 JLINK_WriteReg(XPSR, 0x01000000)  returns 0x00 (0000ms, 0468ms total)
T1460 000:820 JLINK_WriteReg(MSP, 0x20000800)  returns 0x00 (0000ms, 0468ms total)
T1460 000:820 JLINK_WriteReg(PSP, 0x20000800)  returns 0x00 (0000ms, 0468ms total)
T1460 000:820 JLINK_WriteReg(CFBP, 0x00000000)  returns 0x00 (0000ms, 0468ms total)
T1460 000:820 JLINK_SetBPEx(Addr = 0x20000000, Type = 0xFFFFFFF2)  returns 0x0000000B (0000ms, 0468ms total)
T1460 000:820 JLINK_Go() -- CPU_ReadMem(4 bytes @ 0xE0001000) (0003ms, 0471ms total)
T1460 000:823 JLINK_IsHalted()  returns FALSE (0001ms, 0472ms total)
T1460 000:825 JLINK_IsHalted()  returns FALSE (0001ms, 0472ms total)
T1460 000:827 JLINK_IsHalted()  returns FALSE (0001ms, 0472ms total)
T1460 000:829 JLINK_IsHalted()  returns FALSE (0001ms, 0472ms total)
T1460 000:831 JLINK_IsHalted()  returns FALSE (0001ms, 0472ms total)
T1460 000:833 JLINK_IsHalted()  returns FALSE (0001ms, 0472ms total)
T1460 000:835 JLINK_IsHalted()  returns FALSE (0001ms, 0472ms total)
T1460 000:837 JLINK_IsHalted()  returns FALSE (0001ms, 0472ms total)
T1460 000:839 JLINK_IsHalted()  returns FALSE (0000ms, 0472ms total)
T1460 000:840 JLINK_IsHalted()  returns FALSE (0000ms, 0472ms total)
T1460 000:841 JLINK_IsHalted()  returns FALSE (0000ms, 0472ms total)
T1460 000:842 JLINK_IsHalted()  returns FALSE (0000ms, 0472ms total)
T1460 000:843 JLINK_IsHalted()  returns FALSE (0001ms, 0473ms total)
T1460 000:845 JLINK_IsHalted()  returns FALSE (0001ms, 0473ms total)
T1460 000:847 JLINK_IsHalted()  returns FALSE (0001ms, 0473ms total)
T1460 000:849 JLINK_IsHalted()  returns FALSE (0000ms, 0472ms total)
T1460 000:850 JLINK_IsHalted()  returns FALSE (0001ms, 0473ms total)
T1460 000:852 JLINK_IsHalted()  returns FALSE (0001ms, 0473ms total)
T1460 000:854 JLINK_IsHalted() -- CPU_ReadMem(2 bytes @ 0x20000000)  returns TRUE (0004ms, 0476ms total)
T1460 000:858 JLINK_ReadReg(R15 (PC))  returns 0x20000000 (0000ms, 0472ms total)
T1460 000:858 JLINK_ClrBPEx(BPHandle = 0x0000000B)  returns 0x00 (0000ms, 0472ms total)
T1460 000:858 JLINK_ReadReg(R0)  returns 0x00000000 (0000ms, 0472ms total)
T1460 000:859 JLINK_WriteMem(0x20000164, 0x029C Bytes, ...) - Data: 03 21 08 46 FF F7 B0 FE 01 21 44 F2 04 00 FF F7 ... -- CPU_WriteMem(668 bytes @ 0x20000164)  returns 0x29C (0004ms, 0476ms total)
T1460 000:863 JLINK_WriteMem(0x20000400, 0x0164 Bytes, ...) - Data: DD 49 09 68 88 68 80 47 DA 48 00 68 0C 30 F6 E7 ... -- CPU_WriteMem(356 bytes @ 0x20000400)  returns 0x164 (0003ms, 0479ms total)
T1460 000:866 JLINK_WriteReg(R0, 0x08001C00)  returns 0x00 (0000ms, 0479ms total)
T1460 000:866 JLINK_WriteReg(R1, 0x00000400)  returns 0x00 (0000ms, 0479ms total)
T1460 000:866 JLINK_WriteReg(R2, 0x20000164)  returns 0x00 (0000ms, 0479ms total)
T1460 000:866 JLINK_WriteReg(R3, 0x00000000)  returns 0x00 (0000ms, 0479ms total)
T1460 000:866 JLINK_WriteReg(R4, 0x00000000)  returns 0x00 (0000ms, 0479ms total)
T1460 000:866 JLINK_WriteReg(R5, 0x00000000)  returns 0x00 (0000ms, 0479ms total)
T1460 000:866 JLINK_WriteReg(R6, 0x00000000)  returns 0x00 (0000ms, 0479ms total)
T1460 000:866 JLINK_WriteReg(R7, 0x00000000)  returns 0x00 (0000ms, 0479ms total)
T1460 000:866 JLINK_WriteReg(R8, 0x00000000)  returns 0x00 (0000ms, 0479ms total)
T1460 000:866 JLINK_WriteReg(R9, 0x20000160)  returns 0x00 (0000ms, 0479ms total)
T1460 000:866 JLINK_WriteReg(R10, 0x00000000)  returns 0x00 (0000ms, 0479ms total)
T1460 000:866 JLINK_WriteReg(R11, 0x00000000)  returns 0x00 (0000ms, 0479ms total)
T1460 000:866 JLINK_WriteReg(R12, 0x00000000)  returns 0x00 (0000ms, 0479ms total)
T1460 000:866 JLINK_WriteReg(R13 (SP), 0x20000800)  returns 0x00 (0000ms, 0479ms total)
T1460 000:866 JLINK_WriteReg(R14, 0x20000001)  returns 0x00 (0000ms, 0479ms total)
T1460 000:866 JLINK_WriteReg(R15 (PC), 0x200000F4)  returns 0x00 (0000ms, 0479ms total)
T1460 000:866 JLINK_WriteReg(XPSR, 0x01000000)  returns 0x00 (0000ms, 0479ms total)
T1460 000:866 JLINK_WriteReg(MSP, 0x20000800)  returns 0x00 (0000ms, 0479ms total)
T1460 000:866 JLINK_WriteReg(PSP, 0x20000800)  returns 0x00 (0000ms, 0479ms total)
T1460 000:866 JLINK_WriteReg(CFBP, 0x00000000)  returns 0x00 (0000ms, 0479ms total)
T1460 000:866 JLINK_SetBPEx(Addr = 0x20000000, Type = 0xFFFFFFF2)  returns 0x0000000C (0000ms, 0479ms total)
T1460 000:866 JLINK_Go() -- CPU_ReadMem(4 bytes @ 0xE0001000) (0003ms, 0482ms total)
T1460 000:869 JLINK_IsHalted()  returns FALSE (0001ms, 0483ms total)
T1460 000:871 JLINK_IsHalted()  returns FALSE (0001ms, 0483ms total)
T1460 000:873 JLINK_IsHalted()  returns FALSE (0001ms, 0483ms total)
T1460 000:875 JLINK_IsHalted()  returns FALSE (0001ms, 0483ms total)
T1460 000:877 JLINK_IsHalted()  returns FALSE (0001ms, 0483ms total)
T1460 000:879 JLINK_IsHalted()  returns FALSE (0001ms, 0483ms total)
T1460 000:881 JLINK_IsHalted()  returns FALSE (0001ms, 0483ms total)
T1460 000:883 JLINK_IsHalted()  returns FALSE (0001ms, 0483ms total)
T1460 000:885 JLINK_IsHalted()  returns FALSE (0001ms, 0483ms total)
T1460 000:887 JLINK_IsHalted()  returns FALSE (0001ms, 0483ms total)
T1460 000:889 JLINK_IsHalted()  returns FALSE (0001ms, 0483ms total)
T1460 000:891 JLINK_IsHalted()  returns FALSE (0001ms, 0483ms total)
T1460 000:893 JLINK_IsHalted()  returns FALSE (0001ms, 0483ms total)
T1460 000:895 JLINK_IsHalted()  returns FALSE (0000ms, 0482ms total)
T1460 000:896 JLINK_IsHalted()  returns FALSE (0000ms, 0482ms total)
T1460 000:897 JLINK_IsHalted()  returns FALSE (0000ms, 0482ms total)
T1460 000:898 JLINK_IsHalted()  returns FALSE (0001ms, 0483ms total)
T1460 000:900 JLINK_IsHalted() -- CPU_ReadMem(2 bytes @ 0x20000000)  returns TRUE (0004ms, 0486ms total)
T1460 000:904 JLINK_ReadReg(R15 (PC))  returns 0x20000000 (0000ms, 0482ms total)
